time	V(n001)	V(n002)
0.000000000000000e+000	0.000000e+000	0.000000e+000
8.342435787733035e-009	3.145024e-005	1.244160e-006
1.668487157546607e-008	6.290048e-005	3.536744e-006
2.502730736319910e-008	9.435072e-005	6.877750e-006
3.336974315093214e-008	1.258010e-004	1.126718e-005
4.171217893866518e-008	1.572512e-004	1.670503e-005
5.005461472639821e-008	1.887014e-004	2.319131e-005
5.839705051413122e-008	2.201517e-004	3.072601e-005
8.772510635213105e-008	3.307158e-004	6.071177e-005
1.220944751115649e-007	4.602853e-004	1.048298e-004
1.679841614912679e-007	6.332854e-004	1.735852e-004
2.296250490250363e-007	8.656660e-004	2.763311e-004
3.149734863510048e-007	1.187422e-003	4.287404e-004
4.359774775842302e-007	1.643596e-003	6.531393e-004
6.222129615190046e-007	2.345687e-003	1.004090e-003
6.590473694446822e-005	2.487658e-001	1.247556e-001
1.311872609274174e-004	4.946755e-001	2.482477e-001
1.964697849103666e-004	7.400747e-001	3.714804e-001
2.617523088933158e-004	9.849635e-001	4.944537e-001
3.270348328762651e-004	1.229342e+000	6.171676e-001
3.923173568592143e-004	1.473210e+000	7.396220e-001
4.575998808421634e-004	1.716567e+000	8.618170e-001
7.505686308421633e-004	2.791970e+000	1.401831e+000
1.043537380842163e-003	3.833349e+000	1.924758e+000
1.336506130842164e-003	4.828015e+000	2.424227e+000
1.629474880842164e-003	5.763846e+000	2.894152e+000
1.922443630842164e-003	6.629439e+000	3.328808e+000
2.215412380842164e-003	7.414246e+000	3.722897e+000
2.508381130842164e-003	8.108702e+000	4.071618e+000
2.801349880842165e-003	8.704344e+000	4.370722e+000
2.996662380842165e-003	9.042906e+000	4.540732e+000
3.094318630842165e-003	9.193914e+000	4.616559e+000
3.191974880842165e-003	9.332464e+000	4.686090e+000
3.289631130842165e-003	9.458365e+000	4.748933e+000
3.387287380842165e-003	9.571448e+000	4.803535e+000
3.484943630842165e-003	9.671559e+000	4.846640e+000
3.582599880842165e-003	9.758564e+000	4.876116e+000
3.680256130842166e-003	9.832343e+000	4.894217e+000
3.777912380842166e-003	9.892797e+000	4.905170e+000
3.875568630842166e-003	9.939844e+000	4.911738e+000
3.973224880842166e-003	9.973421e+000	4.915576e+000
4.070881130842165e-003	9.993481e+000	4.917679e+000
4.168537380842165e-003	9.999997e+000	4.918344e+000
4.266193630842165e-003	9.992962e+000	4.917606e+000
4.363849880842164e-003	9.972383e+000	4.915356e+000
4.461506130842164e-003	9.938290e+000	4.911254e+000
4.559162380842164e-003	9.890728e+000	4.904566e+000
4.656818630842163e-003	9.829762e+000	4.893636e+000
4.754474880842163e-003	9.755474e+000	4.875260e+000
4.852131130842163e-003	9.667965e+000	4.845262e+000
4.949787380842162e-003	9.567354e+000	4.801681e+000
5.047443630842162e-003	9.453776e+000	4.746719e+000
5.145099880842162e-003	9.327388e+000	4.683610e+000
5.242756130842161e-003	9.188357e+000	4.613841e+000
5.340412380842161e-003	9.036876e+000	4.537782e+000
5.633381130842160e-003	8.509851e+000	4.273154e+000
5.926349880842159e-003	7.879123e+000	3.956453e+000
6.219318630842158e-003	7.152381e+000	3.591539e+000
6.512287380842157e-003	6.338480e+000	3.182859e+000
6.805256130842156e-003	5.447337e+000	2.735394e+000
7.098224880842155e-003	4.489813e+000	2.254597e+000
7.391193630842154e-003	3.477576e+000	1.746327e+000
7.684162380842153e-003	2.422960e+000	1.216779e+000
7.977131130842152e-003	1.338818e+000	6.724096e-001
8.172443630842151e-003	6.061680e-001	3.045350e-001
8.270099880842151e-003	2.383619e-001	1.198569e-001
8.367756130842150e-003	-1.297673e-001	-6.498007e-002
8.465412380842150e-003	-4.977205e-001	-2.497207e-001
8.563068630842149e-003	-8.649994e-001	-4.325157e-001
8.660724880842149e-003	-1.231106e+000	-5.914961e-001
8.736929846217429e-003	-1.515659e+000	-6.668279e-001
8.818997567497634e-003	-1.820699e+000	-6.994897e-001
8.916653817497634e-003	-2.181385e+000	-7.167418e-001
9.111966317497633e-003	-2.893404e+000	-7.349620e-001
9.404935067497632e-003	-3.930851e+000	-7.496647e-001
9.697903817497631e-003	-4.920395e+000	-7.592601e-001
9.990872567497630e-003	-5.849980e+000	-7.662601e-001
1.028384131749763e-002	-6.708276e+000	-7.716620e-001
1.057681006749763e-002	-7.484825e+000	-7.759390e-001
1.086977881749763e-002	-8.170163e+000	-7.793497e-001
1.116274756749763e-002	-8.755939e+000	-7.820472e-001
1.145571631749763e-002	-9.235015e+000	-7.841274e-001
1.174868506749762e-002	-9.601553e+000	-7.856517e-001
1.204165381749762e-002	-9.851085e+000	-7.866589e-001
1.233462256749762e-002	-9.980572e+000	-7.871725e-001
1.262759131749762e-002	-9.988434e+000	-7.872036e-001
1.292056006749762e-002	-9.874577e+000	-7.867528e-001
1.321352881749762e-002	-9.640388e+000	-7.858103e-001
1.350649756749762e-002	-9.288720e+000	-7.843547e-001
1.379946631749762e-002	-8.823859e+000	-7.823492e-001
1.409243506749762e-002	-8.251471e+000	-7.797360e-001
1.438540381749761e-002	-7.578529e+000	-7.764246e-001
1.467837256749761e-002	-6.813235e+000	-7.722712e-001
1.497134131749761e-002	-5.964914e+000	-7.670349e-001
1.526431006749761e-002	-5.043905e+000	-7.602806e-001
1.555727881749761e-002	-4.061430e+000	-7.511099e-001
1.585024756749761e-002	-3.029463e+000	-7.371753e-001
1.604556006749762e-002	-2.320179e+000	-7.212582e-001
1.614321631749762e-002	-1.960579e+000	-7.071654e-001
1.624087256749762e-002	-1.598321e+000	-6.742133e-001
1.633852881749762e-002	-1.233898e+000	-5.873913e-001
1.643618506749762e-002	-8.678023e-001	-4.348114e-001
1.649164101526940e-002	-6.593525e-001	-3.313636e-001
1.656005492866527e-002	-4.018086e-001	-2.019820e-001
1.665771117866527e-002	-3.376133e-002	-1.712950e-002
1.675536742866527e-002	3.343317e-001	1.677164e-001
1.685302367866527e-002	7.019716e-001	3.523318e-001
1.704833617866527e-002	1.433900e+000	7.198750e-001
1.734130492866528e-002	2.515996e+000	1.263251e+000
1.763427367866528e-002	3.567431e+000	1.791228e+000
1.792724242866529e-002	4.575393e+000	2.297373e+000
1.822021117866529e-002	5.527599e+000	2.775521e+000
1.851317992866530e-002	6.412446e+000	3.219845e+000
1.880614867866530e-002	7.219150e+000	3.624930e+000
1.909911742866530e-002	7.937881e+000	3.985840e+000
1.939208617866531e-002	8.559880e+000	4.298179e+000
1.968505492866531e-002	9.077569e+000	4.558138e+000
1.978271117866531e-002	9.225822e+000	4.632579e+000
1.988036742866532e-002	9.361573e+000	4.700676e+000
1.997802367866532e-002	9.484637e+000	4.761889e+000
2.007567992866532e-002	9.594848e+000	4.814242e+000
2.017333617866532e-002	9.692054e+000	4.854370e+000
2.027099242866532e-002	9.776126e+000	4.880961e+000
2.036864867866532e-002	9.846949e+000	4.897054e+000
2.046630492866532e-002	9.904427e+000	4.906835e+000
2.056396117866532e-002	9.948482e+000	4.912746e+000
2.066161742866533e-002	9.979054e+000	4.916179e+000
2.075927367866533e-002	9.996102e+000	4.917951e+000
2.085692992866533e-002	9.999604e+000	4.918303e+000
2.095458617866533e-002	9.989554e+000	4.917244e+000
2.105224242866533e-002	9.965966e+000	4.914621e+000
2.114989867866533e-002	9.928871e+000	4.910027e+000
2.124755492866533e-002	9.878322e+000	4.902596e+000
2.134521117866534e-002	9.814384e+000	4.890372e+000
2.144286742866534e-002	9.737144e+000	4.869750e+000
2.154052367866534e-002	9.646710e+000	4.836723e+000
2.163817992866534e-002	9.543202e+000	4.790308e+000
2.173583617866534e-002	9.426761e+000	4.733301e+000
2.183349242866534e-002	9.297544e+000	4.668643e+000
2.193114867866534e-002	9.155727e+000	4.597458e+000
2.202880492866535e-002	9.001502e+000	4.520020e+000
2.232177367866535e-002	8.466550e+000	4.251412e+000
2.261474242866535e-002	7.828424e+000	3.930995e+000
2.290771117866536e-002	7.094901e+000	3.562676e+000
2.320067992866536e-002	6.274918e+000	3.150943e+000
2.349364867866537e-002	5.378469e+000	2.700814e+000
2.378661742866537e-002	4.416478e+000	2.217773e+000
2.407958617866537e-002	3.400667e+000	1.707709e+000
2.437255492866538e-002	2.343416e+000	1.176839e+000
2.466552367866538e-002	1.257607e+000	6.316320e-001
2.486083617866539e-002	5.243946e-001	2.634757e-001
2.495849242866539e-002	1.564735e-001	7.874047e-002
2.505614867866539e-002	-2.116597e-001	-1.060974e-001
2.515380492866539e-002	-5.795061e-001	-2.907759e-001
2.525146117866539e-002	-9.465671e-001	-4.703202e-001
2.534911742866539e-002	-1.312345e+000	-6.171004e-001
2.542500372507259e-002	-1.595380e+000	-6.794876e-001
2.550512350218804e-002	-1.892783e+000	-7.040921e-001
2.560277975218804e-002	-2.252919e+000	-7.191308e-001
2.579809225218804e-002	-2.963548e+000	-7.361711e-001
2.609106100218804e-002	-3.998199e+000	-7.504193e-001
2.638402975218805e-002	-4.984128e+000	-7.597899e-001
2.667699850218805e-002	-5.909319e+000	-7.666615e-001
2.696996725218806e-002	-6.762500e+000	-7.719773e-001
2.726293600218806e-002	-7.533272e+000	-7.761903e-001
2.755590475218806e-002	-8.212243e+000	-7.795497e-001
2.784887350218807e-002	-8.791140e+000	-7.822037e-001
2.814184225218807e-002	-9.262907e+000	-7.842454e-001
2.843481100218808e-002	-9.621796e+000	-7.857342e-001
2.872777975218808e-002	-9.863433e+000	-7.867082e-001
2.902074850218809e-002	-9.984874e+000	-7.871895e-001
2.931371725218809e-002	-9.984638e+000	-7.871886e-001
2.960668600218809e-002	-9.862729e+000	-7.867056e-001
2.989965475218810e-002	-9.620632e+000	-7.857298e-001
3.019262350218810e-002	-9.261297e+000	-7.842391e-001
3.048559225218811e-002	-8.789104e+000	-7.821953e-001
3.077856100218811e-002	-8.209806e+000	-7.795389e-001
3.107152975218811e-002	-7.530464e+000	-7.761768e-001
3.136449850218812e-002	-6.759354e+000	-7.719604e-001
3.165746725218812e-002	-5.905875e+000	-7.666398e-001
3.195043600218812e-002	-4.980426e+000	-7.597607e-001
3.224340475218813e-002	-3.994285e+000	-7.503742e-001
3.253637350218813e-002	-2.959470e+000	-7.359439e-001
3.273168600218814e-002	-2.248759e+000	-7.190204e-001
3.282934225218814e-002	-1.888591e+000	-7.031688e-001
3.292699850218814e-002	-1.525862e+000	-6.617590e-001
3.302465475218814e-002	-1.161066e+000	-5.604712e-001
3.312231100218814e-002	-7.946966e-001	-3.989444e-001
3.318096277299350e-002	-5.741076e-001	-2.885420e-001
3.325106156719418e-002	-3.101075e-001	-1.559247e-001
3.334871781719418e-002	5.799781e-002	2.894972e-002
3.344637406719418e-002	4.260246e-001	2.137614e-001
3.364168656719418e-002	1.159848e+000	5.822582e-001
3.393465531719419e-002	2.247564e+000	1.128458e+000
3.422762406719419e-002	3.307891e+000	1.660900e+000
3.452059281719420e-002	4.327909e+000	2.173100e+000
3.481356156719420e-002	5.295186e+000	2.658815e+000
3.510653031719421e-002	6.197935e+000	3.112128e+000
3.539949906719421e-002	7.025156e+000	3.527516e+000
3.569246781719421e-002	7.766768e+000	3.899916e+000
3.598543656719422e-002	8.413733e+000	4.224791e+000
3.627840531719422e-002	8.958169e+000	4.498181e+000
3.637606156719422e-002	9.115679e+000	4.577275e+000
3.647371781719423e-002	9.260835e+000	4.650154e+000
3.657137406719423e-002	9.393440e+000	4.716618e+000
3.666903031719423e-002	9.513315e+000	4.775890e+000
3.676668656719423e-002	9.620297e+000	4.825511e+000
3.686434281719423e-002	9.714242e+000	4.862211e+000
3.696199906719423e-002	9.795021e+000	4.885759e+000
3.705965531719423e-002	9.862526e+000	4.899877e+000
3.715731156719423e-002	9.916665e+000	4.908515e+000
3.725496781719424e-002	9.957365e+000	4.913764e+000
3.735262406719424e-002	9.984570e+000	4.916763e+000
3.745028031719424e-002	9.998243e+000	4.918170e+000
3.754793656719424e-002	9.998367e+000	4.918174e+000
3.764559281719424e-002	9.984941e+000	4.916747e+000
3.774324906719424e-002	9.957982e+000	4.913684e+000
3.784090531719424e-002	9.917529e+000	4.908490e+000
3.793856156719425e-002	9.863635e+000	4.900122e+000
3.803621781719425e-002	9.796373e+000	4.886241e+000
3.813387406719425e-002	9.715835e+000	4.862831e+000
3.823153031719425e-002	9.622129e+000	4.826343e+000
3.832918656719425e-002	9.515385e+000	4.776948e+000
3.842684281719425e-002	9.395743e+000	4.717831e+000
3.852449906719425e-002	9.263369e+000	4.651495e+000
3.862215531719426e-002	9.118441e+000	4.578737e+000
3.881746781719426e-002	8.791724e+000	4.414688e+000
3.911043656719426e-002	8.212943e+000	4.124071e+000
3.940340531719427e-002	7.534079e+000	3.783198e+000
3.969637406719427e-002	6.763403e+000	3.396224e+000
3.998934281719428e-002	5.910308e+000	2.967864e+000
4.028231156719428e-002	4.985190e+000	2.503339e+000
4.057528031719428e-002	3.999323e+000	2.008309e+000
4.086824906719429e-002	2.964719e+000	1.488809e+000
4.116121781719429e-002	1.893987e+000	9.511706e-001
4.135653031719429e-002	1.166525e+000	5.858978e-001
4.155184281719430e-002	4.327405e-001	2.174555e-001
4.164949906719430e-002	6.471987e-002	3.267099e-002
4.174715531719430e-002	-3.033885e-001	-1.521530e-001
4.184481156719430e-002	-6.710857e-001	-3.367147e-001
4.194246781719430e-002	-1.037874e+000	-5.100405e-001
4.204012406719430e-002	-1.403255e+000	-6.358425e-001
4.213778031719431e-002	-1.766734e+000	-6.946163e-001
4.222619505311880e-002	-2.093765e+000	-7.136209e-001
4.242150755311881e-002	-2.807431e+000	-7.331181e-001
4.271447630311881e-002	-3.848220e+000	-7.487150e-001
4.300744505311881e-002	-4.842113e+000	-7.585974e-001
4.330041380311882e-002	-5.777000e+000	-7.657600e-001
4.359338255311882e-002	-6.641489e+000	-7.712698e-001
4.388635130311883e-002	-7.425044e+000	-7.756267e-001
4.417932005311883e-002	-8.118116e+000	-7.791009e-001
4.447228880311883e-002	-8.712261e+000	-7.818522e-001
4.476525755311884e-002	-9.200238e+000	-7.839798e-001
4.505822630311884e-002	-9.576100e+000	-7.855476e-001
4.535119505311885e-002	-9.835267e+000	-7.865958e-001
4.564416380311885e-002	-9.974582e+000	-7.871489e-001
4.593713255311886e-002	-9.992345e+000	-7.872189e-001
4.623010130311886e-002	-9.888341e+000	-7.868075e-001
4.652307005311886e-002	-9.663836e+000	-7.859056e-001
4.681603880311887e-002	-9.321568e+000	-7.844928e-001
4.710900755311887e-002	-8.865707e+000	-7.825338e-001
4.740197630311888e-002	-8.301807e+000	-7.799728e-001
4.769494505311888e-002	-7.636742e+000	-7.767226e-001
4.798791380311888e-002	-6.878614e+000	-7.726448e-001
4.828088255311889e-002	-6.036664e+000	-7.675090e-001
4.857385130311889e-002	-5.121150e+000	-7.609023e-001
4.886682005311890e-002	-4.143229e+000	-7.519832e-001
4.915978880311890e-002	-3.114820e+000	-7.386099e-001
4.935510130311890e-002	-2.407331e+000	-7.237669e-001
4.945275755311891e-002	-2.048452e+000	-7.113367e-001
4.955041380311891e-002	-1.686797e+000	-6.861758e-001
4.964807005311891e-002	-1.322856e+000	-6.153576e-001
4.974572630311891e-002	-9.571218e-001	-4.767821e-001
4.980584436779557e-002	-7.312961e-001	-3.674876e-001
4.987769900760160e-002	-4.609005e-001	-2.316578e-001
4.997535525760160e-002	-9.290715e-002	-4.683128e-002
5.007301150760160e-002	2.752121e-001	1.380285e-001
5.017066775760160e-002	6.429585e-001	3.226977e-001
5.036598025760160e-002	1.375340e+000	6.904685e-001
5.065894900760161e-002	2.458708e+000	1.234484e+000
5.095191775760161e-002	3.512113e+000	1.763450e+000
5.124488650760162e-002	4.522720e+000	2.270924e+000
5.153785525760162e-002	5.478213e+000	2.750722e+000
5.183082400760163e-002	6.366948e+000	3.196998e+000
5.212379275760163e-002	7.178095e+000	3.604314e+000
5.241676150760163e-002	7.901769e+000	3.967707e+000
5.270973025760164e-002	8.529152e+000	4.282749e+000
5.300269900760164e-002	9.052598e+000	4.545599e+000
5.310035525760164e-002	9.202843e+000	4.621041e+000
5.319801150760165e-002	9.340615e+000	4.690175e+000
5.329566775760165e-002	9.465729e+000	4.752576e+000
5.339332400760165e-002	9.578014e+000	4.806565e+000
5.349098025760165e-002	9.677320e+000	4.848860e+000
5.358863650760165e-002	9.763510e+000	4.877523e+000
5.368629275760165e-002	9.836468e+000	4.895042e+000
5.378394900760165e-002	9.896095e+000	4.905662e+000
5.388160525760165e-002	9.942311e+000	4.912031e+000
5.397926150760166e-002	9.975053e+000	4.915751e+000
5.407691775760166e-002	9.994277e+000	4.917762e+000
5.417457400760166e-002	9.999955e+000	4.918340e+000
5.427223025760166e-002	9.992083e+000	4.917513e+000
5.436988650760166e-002	9.970667e+000	4.915161e+000
5.446754275760166e-002	9.935740e+000	4.910926e+000
5.456519900760166e-002	9.887347e+000	4.904040e+000
5.466285525760167e-002	9.825555e+000	4.892760e+000
5.476051150760167e-002	9.750446e+000	4.873789e+000
5.485816775760167e-002	9.662125e+000	4.842961e+000
5.495582400760167e-002	9.560707e+000	4.798572e+000
5.505348025760167e-002	9.446334e+000	4.743031e+000
5.515113650760167e-002	9.319159e+000	4.679483e+000
5.524879275760167e-002	9.179353e+000	4.609320e+000
5.534644900760168e-002	9.027107e+000	4.532878e+000
5.563941775760168e-002	8.497876e+000	4.267141e+000
5.593238650760168e-002	7.865089e+000	3.949406e+000
5.622535525760169e-002	7.136458e+000	3.583543e+000
5.651832400760169e-002	6.320861e+000	3.174012e+000
5.681129275760170e-002	5.428238e+000	2.725804e+000
5.710426150760170e-002	4.469466e+000	2.244380e+000
5.739723025760170e-002	3.456229e+000	1.735609e+000
5.769019900760171e-002	2.400874e+000	1.205690e+000
5.798316775760171e-002	1.316262e+000	6.610838e-001
5.817848025760172e-002	5.834508e-001	2.931285e-001
5.827613650760172e-002	2.156103e-001	1.084332e-001
5.837379275760172e-002	-1.525225e-001	-7.640528e-002
5.847144900760172e-002	-5.204486e-001	-2.611308e-001
5.856910525760172e-002	-8.876693e-001	-4.432601e-001
5.866676150760172e-002	-1.253687e+000	-5.994405e-001
5.874185857180456e-002	-1.534023e+000	-6.705585e-001
5.882206360037173e-002	-1.832063e+000	-7.006103e-001
5.891971985037173e-002	-2.192664e+000	-7.172498e-001
5.911503235037173e-002	-2.904467e+000	-7.351236e-001
5.940800110037173e-002	-3.941476e+000	-7.497851e-001
5.970096985037174e-002	-4.930455e+000	-7.593443e-001
5.999393860037174e-002	-5.859350e+000	-7.663238e-001
6.028690735037175e-002	-6.716844e+000	-7.717119e-001
6.057987610037175e-002	-7.492485e+000	-7.759789e-001
6.087284485037176e-002	-8.176823e+000	-7.793814e-001
6.116581360037176e-002	-8.761517e+000	-7.820720e-001
6.145878235037176e-002	-9.239443e+000	-7.841461e-001
6.175175110037177e-002	-9.604776e+000	-7.856648e-001
6.204471985037177e-002	-9.853065e+000	-7.866668e-001
6.233768860037178e-002	-9.981285e+000	-7.871753e-001
6.263065735037177e-002	-9.987871e+000	-7.872013e-001
6.292362610037175e-002	-9.872746e+000	-7.867455e-001
6.321659485037173e-002	-9.637309e+000	-7.857978e-001
6.350956360037172e-002	-9.284432e+000	-7.843366e-001
6.380253235037170e-002	-8.818415e+000	-7.823251e-001
6.409550110037168e-002	-8.244935e+000	-7.797051e-001
6.438846985037167e-002	-7.570983e+000	-7.763858e-001
6.468143860037165e-002	-6.804770e+000	-7.722225e-001
6.497440735037163e-002	-5.955633e+000	-7.669731e-001
6.526737610037162e-002	-5.033921e+000	-7.601994e-001
6.556034485037160e-002	-4.050866e+000	-7.509953e-001
6.585331360037158e-002	-3.018446e+000	-7.369848e-001
6.604862610037157e-002	-2.308934e+000	-7.209173e-001
6.614628235037157e-002	-1.949243e+000	-7.065778e-001
6.624393860037156e-002	-1.586910e+000	-6.723889e-001
6.634159485037156e-002	-1.222427e+000	-5.833479e-001
6.643925110037155e-002	-8.562866e-001	-4.292274e-001
6.649509507103295e-002	-6.463588e-001	-3.248367e-001
6.656376912367677e-002	-3.878173e-001	-1.949547e-001
6.666142537367677e-002	-1.975920e-002	-1.009796e-002
6.675908162367676e-002	3.483257e-001	1.747437e-001
6.685673787367676e-002	7.159386e-001	3.593454e-001
6.705205037367674e-002	1.447757e+000	7.268329e-001
6.734501912367673e-002	2.529545e+000	1.270055e+000
6.763798787367671e-002	3.580508e+000	1.797794e+000
6.793095662367669e-002	4.587839e+000	2.303623e+000
6.822392537367668e-002	5.539262e+000	2.781378e+000
6.851689412367666e-002	6.423184e+000	3.225237e+000
6.880986287367664e-002	7.228832e+000	3.629792e+000
6.910283162367663e-002	7.946389e+000	3.990113e+000
6.939580037367661e-002	8.567111e+000	4.301810e+000
6.968876912367659e-002	9.083434e+000	4.561083e+000
6.978642537367659e-002	9.231215e+000	4.635286e+000
6.988408162367658e-002	9.366488e+000	4.703136e+000
6.998173787367658e-002	9.489065e+000	4.764063e+000
7.007939412367657e-002	9.598783e+000	4.816010e+000
7.017705037367657e-002	9.695493e+000	4.855623e+000
7.027470662367656e-002	9.779062e+000	4.881738e+000
7.037236287367656e-002	9.849380e+000	4.897511e+000
7.047001912367655e-002	9.906348e+000	4.907110e+000
7.056767537367654e-002	9.949891e+000	4.912910e+000
7.066533162367654e-002	9.979950e+000	4.916274e+000
7.076298787367653e-002	9.996484e+000	4.917990e+000
